
T45A8 000:060 SEGGER J-Link V6.14b Log File (0000ms, 0026ms total)
T45A8 000:060 DLL Compiled: Mar  9 2017 08:46:04 (0000ms, 0026ms total)
T45A8 000:060 Logging started @ 2019-04-04 21:42 (0000ms, 0026ms total)
T45A8 000:060 JLINK_SetWarnOutHandler(...) (0001ms, 0027ms total)
T45A8 000:061 JLINK_OpenEx(...)
Firmware: J-Link ARM-OB STM32 compiled Aug 22 2012 19:52:04
Hardware: V7.00
S/N: 20090928
Feature(s): RDI,FlashDL,FlashBP,JFlash,GDBFullWEBSRV Webserver running on local port 19080 (0010ms, 0037ms total)
T45A8 000:061   returns O.K. (0010ms, 0037ms total)
T45A8 000:071 JLINK_SetErrorOutHandler(...) (0001ms, 0038ms total)
T45A8 000:072 JLINK_ExecCommand("ProjectFile = "C:\Users\DELL\Desktop\RM2019\Engineer_FreeRTOS_A\USER\JLinkSettings.ini"", ...). C:\Program Files (x86)\SEGGER\JLink_V614b\JLinkDevices.xml evaluated successfully.  returns 0x00 (0139ms, 0177ms total)
T45A8 000:212 JLINK_ExecCommand("Device = STM32F427II", ...). Device "STM32F427II" selected.  returns 0x00 (0003ms, 0180ms total)
T45A8 000:215 JLINK_ExecCommand("DisableConnectionTimeout", ...).   returns 0x01 (0000ms, 0180ms total)
T45A8 000:215 JLINK_GetHardwareVersion()  returns 0x11170 (0000ms, 0180ms total)
T45A8 000:215 JLINK_GetDLLVersion()  returns 61402 (0000ms, 0180ms total)
T45A8 000:215 JLINK_GetFirmwareString(...) (0000ms, 0180ms total)
T45A8 000:216 JLINK_GetDLLVersion()  returns 61402 (0000ms, 0180ms total)
T45A8 000:216 JLINK_GetCompileDateTime() (0000ms, 0180ms total)
T45A8 000:216 JLINK_GetFirmwareString(...) (0000ms, 0180ms total)
T45A8 000:216 JLINK_GetHardwareVersion()  returns 0x11170 (0000ms, 0180ms total)
T45A8 000:217 JLINK_TIF_Select(JLINKARM_TIF_SWD)  returns 0x00 (0001ms, 0181ms total)
T45A8 000:218 JLINK_SetSpeed(1000) (0000ms, 0181ms total)
T45A8 000:218 JLINK_GetId() >0x108 TIF>Found SWD-DP with ID 0x2BA01477 >0x0D TIF> >0x28 TIF> >0x0D TIF> >0x28 TIF> >0x0D TIF> >0x28 TIF> >0x0D TIF> >0x28 TIF> >0x0D TIF> >0x21 TIF> >0x0D TIF> >0x28 TIF> >0x0D TIF> >0x28 TIF> >0x0D TIF> >0x28 TIF> >0x0D TIF> >0x21 TIF> >0x0D TIF> >0x21 TIF> >0x0D TIF> >0x28 TIF> >0x0D TIF> >0x21 TIF> >0x0D TIF> >0x21 TIF> >0x0D TIF> >0x28 TIF> >0x0D TIF> >0x21 TIF> >0x0D TIF> >0x21 TIF> >0x0D TIF> >0x28 TIF> >0x0D TIF> >0x21 TIF> >0x0D TIF> >0x21 TIF> >0x0D TIF>
 >0x28 TIF> >0x0D TIF> >0x21 TIF> >0x0D TIF> >0x21 TIF> >0x0D TIF> >0x28 TIF> >0x0D TIF> >0x21 TIF> >0x0D TIF> >0x21 TIF> >0x0D TIF> >0x28 TIF> >0x0D TIF> >0x21 TIF> >0x0D TIF> >0x21 TIF> >0x108 TIF>Found SWD-DP with ID 0x2BA01477 >0x0D TIF> >0x28 TIF> >0x0D TIF> >0x28 TIF> >0x0D TIF> >0x28 TIF> >0x0D TIF> >0x28 TIF> >0x0D TIF> >0x21 TIF> >0x0D TIF> >0x28 TIF> >0x0D TIF> >0x28 TIF> >0x0D TIF> >0x21 TIF> >0x0D TIF> >0x21 TIF> >0x0D TIF> >0x21 TIF>AP-IDR: 0x24770011, Type: AHB-AP
AHB-AP ROM: 0xE00FF000 (Base addr. of first ROM table) >0x0D TIF> >0x28 TIF> >0x0D TIF> >0x28 TIF> >0x0D TIF> >0x28 TIF> >0x0D TIF> >0x21 TIF> >0x0D TIF> >0x21 TIF> >0x0D TIF> >0x28 TIF> >0x0D TIF> >0x21 TIF> >0x0D TIF> >0x21 TIF>Found Cortex-M4 r0p1, Little endian. -- CPU_ReadMem(4 bytes @ 0xE000EDF0) -- CPU_WriteMem(4 bytes @ 0xE000EDF0) -- CPU_ReadMem(4 bytes @ 0xE0002000)FPUnit: 6 code (BP) slots and 2 literal slots -- CPU_ReadMem(4 bytes @ 0xE000EDFC) -- CPU_WriteMem(4 bytes @ 0xE000EDFC)
 -- CPU_ReadMem(4 bytes @ 0xE0001000) -- CPU_WriteMem(4 bytes @ 0xE0001000) -- CPU_ReadMem(4 bytes @ 0xE000ED88) -- CPU_WriteMem(4 bytes @ 0xE000ED88) -- CPU_ReadMem(4 bytes @ 0xE000ED88) -- CPU_WriteMem(4 bytes @ 0xE000ED88)CoreSight components:ROMTbl 0 @ E00FF000 -- CPU_ReadMem(16 bytes @ 0xE00FF000) -- CPU_ReadMem(16 bytes @ 0xE000EFF0) -- CPU_ReadMem(16 bytes @ 0xE000EFE0)ROMTbl 0 [0]: FFF0F000, CID: B105E00D, PID: 000BB00C SCS -- CPU_ReadMem(16 bytes @ 0xE0001FF0)
 -- CPU_ReadMem(16 bytes @ 0xE0001FE0)ROMTbl 0 [1]: FFF02000, CID: B105E00D, PID: 003BB002 DWT -- CPU_ReadMem(16 bytes @ 0xE0002FF0) -- CPU_ReadMem(16 bytes @ 0xE0002FE0)ROMTbl 0 [2]: FFF03000, CID: B105E00D, PID: 002BB003 FPB -- CPU_ReadMem(16 bytes @ 0xE0000FF0) -- CPU_ReadMem(16 bytes @ 0xE0000FE0)ROMTbl 0 [3]: FFF01000, CID: B105E00D, PID: 003BB001 ITM -- CPU_ReadMem(16 bytes @ 0xE00FF010) -- CPU_ReadMem(16 bytes @ 0xE0040FF0) -- CPU_ReadMem(16 bytes @ 0xE0040FE0)
ROMTbl 0 [4]: FFF41000, CID: B105900D, PID: 000BB9A1 TPIU -- CPU_ReadMem(16 bytes @ 0xE0041FF0) -- CPU_ReadMem(16 bytes @ 0xE0041FE0)ROMTbl 0 [5]: FFF42000, CID: B105900D, PID: 000BB925 ETM >0x0D TIF> >0x21 TIF>  returns 0x2BA01477 (0081ms, 0262ms total)
T45A8 000:299 JLINK_GetDLLVersion()  returns 61402 (0000ms, 0262ms total)
T45A8 000:299 JLINK_CORE_GetFound()  returns 0xE0000FF (0000ms, 0262ms total)
T45A8 000:299 JLINK_GetDebugInfo(0x100 = JLINKARM_ROM_TABLE_ADDR_INDEX) -- Value=0xE00FF000  returns 0x00 (0000ms, 0262ms total)
T45A8 000:299 JLINK_ReadMem (0xE00FF000, 0x0020 Bytes, ...) -- CPU is running -- CPU_ReadMem(32 bytes @ 0xE00FF000) - Data: 03 F0 F0 FF 03 20 F0 FF 03 30 F0 FF 03 10 F0 FF ...  returns 0x00 (0002ms, 0264ms total)
T45A8 000:301 JLINK_ReadMem (0xE000EFF0, 0x0010 Bytes, ...) -- CPU is running -- CPU_ReadMem(16 bytes @ 0xE000EFF0) - Data: 0D 00 00 00 E0 00 00 00 05 00 00 00 B1 00 00 00  returns 0x00 (0002ms, 0266ms total)
T45A8 000:303 JLINK_ReadMem (0xE000EFD0, 0x0020 Bytes, ...) -- CPU is running -- CPU_ReadMem(32 bytes @ 0xE000EFD0) - Data: 04 00 00 00 00 00 00 00 00 00 00 00 00 00 00 00 ...  returns 0x00 (0002ms, 0268ms total)
T45A8 000:305 JLINK_ReadMem (0xE0001FF0, 0x0010 Bytes, ...) -- CPU is running -- CPU_ReadMem(16 bytes @ 0xE0001FF0) - Data: 0D 00 00 00 E0 00 00 00 05 00 00 00 B1 00 00 00  returns 0x00 (0001ms, 0269ms total)
T45A8 000:306 JLINK_ReadMem (0xE0001FD0, 0x0020 Bytes, ...) -- CPU is running -- CPU_ReadMem(32 bytes @ 0xE0001FD0) - Data: 04 00 00 00 00 00 00 00 00 00 00 00 00 00 00 00 ...  returns 0x00 (0002ms, 0271ms total)
T45A8 000:308 JLINK_ReadMem (0xE0002FF0, 0x0010 Bytes, ...) -- CPU is running -- CPU_ReadMem(16 bytes @ 0xE0002FF0) - Data: 0D 00 00 00 E0 00 00 00 05 00 00 00 B1 00 00 00  returns 0x00 (0001ms, 0272ms total)
T45A8 000:309 JLINK_ReadMem (0xE0002FD0, 0x0020 Bytes, ...) -- CPU is running -- CPU_ReadMem(32 bytes @ 0xE0002FD0) - Data: 04 00 00 00 00 00 00 00 00 00 00 00 00 00 00 00 ...  returns 0x00 (0002ms, 0274ms total)
T45A8 000:311 JLINK_ReadMem (0xE0000FF0, 0x0010 Bytes, ...) -- CPU is running -- CPU_ReadMem(16 bytes @ 0xE0000FF0) - Data: 0D 00 00 00 E0 00 00 00 05 00 00 00 B1 00 00 00  returns 0x00 (0002ms, 0276ms total)
T45A8 000:313 JLINK_ReadMem (0xE0000FD0, 0x0020 Bytes, ...) -- CPU is running -- CPU_ReadMem(32 bytes @ 0xE0000FD0) - Data: 04 00 00 00 00 00 00 00 00 00 00 00 00 00 00 00 ...  returns 0x00 (0002ms, 0278ms total)
T45A8 000:315 JLINK_ReadMem (0xE0040FF0, 0x0010 Bytes, ...) -- CPU is running -- CPU_ReadMem(16 bytes @ 0xE0040FF0) - Data: 0D 00 00 00 90 00 00 00 05 00 00 00 B1 00 00 00  returns 0x00 (0001ms, 0279ms total)
T45A8 000:316 JLINK_ReadMem (0xE0040FD0, 0x0020 Bytes, ...) -- CPU is running -- CPU_ReadMem(32 bytes @ 0xE0040FD0) - Data: 04 00 00 00 00 00 00 00 00 00 00 00 00 00 00 00 ...  returns 0x00 (0002ms, 0281ms total)
T45A8 000:318 JLINK_ReadMem (0xE0041FF0, 0x0010 Bytes, ...) -- CPU is running -- CPU_ReadMem(16 bytes @ 0xE0041FF0) - Data: 0D 00 00 00 90 00 00 00 05 00 00 00 B1 00 00 00  returns 0x00 (0001ms, 0282ms total)
T45A8 000:319 JLINK_ReadMem (0xE0041FD0, 0x0020 Bytes, ...) -- CPU is running -- CPU_ReadMem(32 bytes @ 0xE0041FD0) - Data: 04 00 00 00 00 00 00 00 00 00 00 00 00 00 00 00 ...  returns 0x00 (0002ms, 0284ms total)
T45A8 000:321 JLINK_ReadMemU32(0xE000EF40, 0x0001 Items, ...) -- CPU is running -- CPU_ReadMem(4 bytes @ 0xE000EF40) - Data: 21 00 11 10  returns 0x01 (0001ms, 0285ms total)
T45A8 000:322 JLINK_ReadMemU32(0xE000EF44, 0x0001 Items, ...) -- CPU is running -- CPU_ReadMem(4 bytes @ 0xE000EF44) - Data: 11 00 00 11  returns 0x01 (0001ms, 0286ms total)
T45A8 000:323 JLINK_ReadMemU32(0xE000ED00, 0x0001 Items, ...) -- CPU is running -- CPU_ReadMem(4 bytes @ 0xE000ED00) - Data: 41 C2 0F 41  returns 0x01 (0002ms, 0288ms total)
T45A8 000:325 JLINK_SetResetType(JLINKARM_CM3_RESET_TYPE_NORMAL)  returns JLINKARM_CM3_RESET_TYPE_NORMAL (0000ms, 0288ms total)
T45A8 000:325 JLINK_Reset() -- CPU is running -- CPU_WriteMem(4 bytes @ 0xE000EDF0) -- CPU is running -- CPU_WriteMem(4 bytes @ 0xE000EDFC) >0x35 TIF> -- CPU is running -- CPU_WriteMem(4 bytes @ 0xE000ED0C) >0x0D TIF> >0x28 TIF> -- CPU is running -- CPU_ReadMem(4 bytes @ 0xE000EDF0) -- CPU is running -- CPU_ReadMem(4 bytes @ 0xE000EDF0) -- CPU is running -- CPU_WriteMem(4 bytes @ 0xE000EDF0) -- CPU is running -- CPU_WriteMem(4 bytes @ 0xE000EDFC) -- CPU is running -- CPU_ReadMem(4 bytes @ 0xE000EDF0)
 -- CPU_WriteMem(4 bytes @ 0xE0002000) -- CPU_ReadMem(4 bytes @ 0xE000EDFC) -- CPU_ReadMem(4 bytes @ 0xE0001000) (0080ms, 0368ms total)
T45A8 000:405 JLINK_ReadReg(R15 (PC))  returns 0x08004778 (0000ms, 0368ms total)
T45A8 000:405 JLINK_ReadReg(XPSR)  returns 0x01000000 (0000ms, 0368ms total)
T45A8 000:405 JLINK_Halt()  returns 0x00 (0000ms, 0368ms total)
T45A8 000:405 JLINK_IsHalted()  returns TRUE (0000ms, 0368ms total)
T45A8 000:405 JLINK_ReadMemU32(0xE000EDF0, 0x0001 Items, ...) -- CPU_ReadMem(4 bytes @ 0xE000EDF0) - Data: 03 00 03 00  returns 0x01 (0001ms, 0369ms total)
T45A8 000:406 JLINK_WriteU32(0xE000EDF0, 0xA05F0003) -- CPU_WriteMem(4 bytes @ 0xE000EDF0)  returns 0x00 (0001ms, 0370ms total)
T45A8 000:407 JLINK_WriteU32(0xE000EDFC, 0x01000000) -- CPU_WriteMem(4 bytes @ 0xE000EDFC)  returns 0x00 (0002ms, 0372ms total)
T45A8 000:409 JLINK_GetHWStatus(...)  returns 0x00 (0001ms, 0373ms total)
T45A8 000:410 JLINK_GetNumBPUnits(Type = 0xFFFFFF00)  returns 0x06 (0000ms, 0373ms total)
T45A8 000:410 JLINK_GetNumBPUnits(Type = 0xF0)  returns 0x2000 (0000ms, 0373ms total)
T45A8 000:410 JLINK_GetNumWPUnits()  returns 0x04 (0000ms, 0373ms total)
T45A8 000:411 JLINK_GetSpeed()  returns 0x3E8 (0000ms, 0373ms total)
T45A8 000:411 JLINK_ReadMemU32(0xE000E004, 0x0001 Items, ...) -- CPU_ReadMem(4 bytes @ 0xE000E004) - Data: 02 00 00 00  returns 0x01 (0001ms, 0374ms total)
T45A8 000:412 JLINK_ReadMemU32(0xE000E004, 0x0001 Items, ...) -- CPU_ReadMem(4 bytes @ 0xE000E004) - Data: 02 00 00 00  returns 0x01 (0001ms, 0375ms total)
T45A8 000:413 JLINK_WriteMem(0xE0001000, 0x001C Bytes, ...) - Data: 01 00 00 00 00 00 00 00 00 00 00 00 00 00 00 00 ... -- CPU_WriteMem(28 bytes @ 0xE0001000)  returns 0x1C (0003ms, 0378ms total)
T45A8 000:416 JLINK_ReadMem (0xE0001000, 0x001C Bytes, ...) -- CPU_ReadMem(28 bytes @ 0xE0001000) - Data: 01 00 00 40 00 00 00 00 00 00 00 00 00 00 00 00 ...  returns 0x00 (0002ms, 0380ms total)
T45A8 000:418 JLINK_ReadReg(R15 (PC))  returns 0x08004778 (0000ms, 0380ms total)
T45A8 000:418 JLINK_ReadReg(XPSR)  returns 0x01000000 (0000ms, 0380ms total)
T45A8 000:566 JLINK_SetResetType(JLINKARM_CM3_RESET_TYPE_NORMAL)  returns JLINKARM_CM3_RESET_TYPE_NORMAL (0000ms, 0380ms total)
T45A8 000:566 JLINK_Reset() -- CPU_WriteMem(4 bytes @ 0xE000EDF0) -- CPU_WriteMem(4 bytes @ 0xE000EDFC) >0x35 TIF> -- CPU_WriteMem(4 bytes @ 0xE000ED0C) >0x0D TIF> >0x28 TIF> -- CPU_ReadMem(4 bytes @ 0xE000EDF0) -- CPU_ReadMem(4 bytes @ 0xE000EDF0) -- CPU_WriteMem(4 bytes @ 0xE000EDF0) -- CPU_WriteMem(4 bytes @ 0xE000EDFC) -- CPU is running -- CPU_ReadMem(4 bytes @ 0xE000EDF0) -- CPU_WriteMem(4 bytes @ 0xE0002000) -- CPU_ReadMem(4 bytes @ 0xE000EDFC) -- CPU_ReadMem(4 bytes @ 0xE0001000)
 (0081ms, 0461ms total)
T45A8 000:647 JLINK_ReadReg(R15 (PC))  returns 0x08004778 (0000ms, 0461ms total)
T45A8 000:647 JLINK_ReadReg(XPSR)  returns 0x01000000 (0000ms, 0461ms total)
T45A8 000:647 JLINK_ReadMem (0x08004778, 0x003C Bytes, ...) -- CPU_ReadMem(128 bytes @ 0x08004740) -- Updating C cache (128 bytes @ 0x08004740) -- Read from C cache (60 bytes @ 0x08004778) - Data: 09 48 80 47 09 48 00 47 FE E7 FE E7 FE E7 FE E7 ...  returns 0x00 (0005ms, 0466ms total)
T45A8 004:546 JLINK_ReadMem (0x200000B8, 0x0004 Bytes, ...) -- CPU_ReadMem(64 bytes @ 0x20000080) -- Updating C cache (64 bytes @ 0x20000080) -- Read from C cache (4 bytes @ 0x200000B8) - Data: 00 00 00 00  returns 0x00 (0003ms, 0469ms total)
T45A8 004:552 JLINK_ReadMem (0x20000045, 0x0001 Bytes, ...) -- CPU_ReadMem(64 bytes @ 0x20000040) -- Updating C cache (64 bytes @ 0x20000040) -- Read from C cache (1 bytes @ 0x20000045) - Data: 00  returns 0x00 (0003ms, 0472ms total)
T45A8 004:562 JLINK_ReadMem (0x20000000, 0x0001 Bytes, ...) -- CPU_ReadMem(64 bytes @ 0x20000000) -- Updating C cache (64 bytes @ 0x20000000) -- Read from C cache (1 bytes @ 0x20000000) - Data: 00  returns 0x00 (0003ms, 0475ms total)
T45A8 004:597 JLINK_ReadMem (0x20000648, 0x01B8 Bytes, ...) -- CPU_ReadMem(448 bytes @ 0x20000640) -- Updating C cache (448 bytes @ 0x20000640) -- Read from C cache (440 bytes @ 0x20000648) - Data: 00 00 00 00 00 00 00 00 00 00 00 00 00 00 00 00 ...  returns 0x00 (0013ms, 0488ms total)
T45A8 004:610 JLINK_ReadMem (0x20000800, 0x00C4 Bytes, ...) -- CPU_ReadMem(256 bytes @ 0x20000800) -- Updating C cache (256 bytes @ 0x20000800) -- Read from C cache (196 bytes @ 0x20000800) - Data: A5 A5 A5 A5 A5 A5 A5 A5 A5 A5 A5 A5 A5 A5 A5 A5 ...  returns 0x00 (0008ms, 0496ms total)
T151C 004:656 JLINK_SetBPEx(Addr = 0x0800035A, Type = 0xFFFFFFF2)  returns 0x00000001 (0000ms, 0496ms total)
T151C 004:656 JLINK_Go() -- CPU_WriteMem(4 bytes @ 0xE0002000) -- CPU_ReadMem(4 bytes @ 0xE0001000) -- CPU_WriteMem(4 bytes @ 0xE0002008) -- CPU_WriteMem(4 bytes @ 0xE000200C) -- CPU_WriteMem(4 bytes @ 0xE0002010) -- CPU_WriteMem(4 bytes @ 0xE0002014) -- CPU_WriteMem(4 bytes @ 0xE0002018) -- CPU_WriteMem(4 bytes @ 0xE000201C) -- CPU_WriteMem(4 bytes @ 0xE0001004) (0011ms, 0507ms total)
T151C 004:768 JLINK_IsHalted()  returns TRUE (0008ms, 0515ms total)
T151C 004:777 JLINK_Halt()  returns 0x00 (0000ms, 0507ms total)
T151C 004:777 JLINK_IsHalted()  returns TRUE (0000ms, 0507ms total)
T151C 004:777 JLINK_IsHalted()  returns TRUE (0000ms, 0507ms total)
T151C 004:777 JLINK_IsHalted()  returns TRUE (0000ms, 0507ms total)
T151C 004:777 JLINK_ReadReg(R15 (PC))  returns 0x0800035A (0001ms, 0508ms total)
T151C 004:778 JLINK_ReadReg(XPSR)  returns 0x21000000 (0000ms, 0508ms total)
T151C 004:778 JLINK_ClrBPEx(BPHandle = 0x00000001)  returns 0x00 (0000ms, 0508ms total)
T151C 004:778 JLINK_ReadMemU32(0xE000ED30, 0x0001 Items, ...) -- CPU_ReadMem(4 bytes @ 0xE000ED30) - Data: 03 00 00 00  returns 0x01 (0001ms, 0509ms total)
T151C 004:779 JLINK_ReadMemU32(0xE0001028, 0x0001 Items, ...) -- CPU_ReadMem(4 bytes @ 0xE0001028) - Data: 00 00 00 00  returns 0x01 (0001ms, 0510ms total)
T151C 004:780 JLINK_ReadMemU32(0xE0001038, 0x0001 Items, ...) -- CPU_ReadMem(4 bytes @ 0xE0001038) - Data: 00 02 00 00  returns 0x01 (0002ms, 0512ms total)
T151C 004:782 JLINK_ReadMemU32(0xE0001048, 0x0001 Items, ...) -- CPU_ReadMem(4 bytes @ 0xE0001048) - Data: 00 00 00 00  returns 0x01 (0001ms, 0513ms total)
T151C 004:783 JLINK_ReadMemU32(0xE0001058, 0x0001 Items, ...) -- CPU_ReadMem(4 bytes @ 0xE0001058) - Data: 00 00 00 00  returns 0x01 (0001ms, 0514ms total)
T151C 004:784 JLINK_ReadReg(R0)  returns 0x20013500 (0000ms, 0514ms total)
T151C 004:784 JLINK_ReadReg(R1)  returns 0x20013700 (0000ms, 0514ms total)
T151C 004:784 JLINK_ReadReg(R2)  returns 0x20013700 (0000ms, 0514ms total)
T151C 004:784 JLINK_ReadReg(R3)  returns 0x20013700 (0000ms, 0514ms total)
T151C 004:784 JLINK_ReadReg(R4)  returns 0x00000000 (0000ms, 0514ms total)
T151C 004:784 JLINK_ReadReg(R5)  returns 0x200134A0 (0000ms, 0514ms total)
T151C 004:784 JLINK_ReadReg(R6)  returns 0x00000000 (0000ms, 0514ms total)
T151C 004:784 JLINK_ReadReg(R7)  returns 0x00000000 (0000ms, 0514ms total)
T151C 004:784 JLINK_ReadReg(R8)  returns 0x00000000 (0000ms, 0514ms total)
T151C 004:784 JLINK_ReadReg(R9)  returns 0x00000000 (0001ms, 0515ms total)
T151C 004:785 JLINK_ReadReg(R10)  returns 0x0800D718 (0000ms, 0515ms total)
T151C 004:785 JLINK_ReadReg(R11)  returns 0x00000000 (0000ms, 0515ms total)
T151C 004:785 JLINK_ReadReg(R12)  returns 0x200134E0 (0000ms, 0515ms total)
T151C 004:785 JLINK_ReadReg(R13 (SP))  returns 0x20013B00 (0000ms, 0515ms total)
T151C 004:785 JLINK_ReadReg(R14)  returns 0x0800028B (0000ms, 0515ms total)
T151C 004:785 JLINK_ReadReg(R15 (PC))  returns 0x0800035A (0000ms, 0515ms total)
T151C 004:785 JLINK_ReadReg(XPSR)  returns 0x21000000 (0000ms, 0515ms total)
T151C 004:785 JLINK_ReadReg(MSP)  returns 0x20013B00 (0000ms, 0515ms total)
T151C 004:785 JLINK_ReadReg(PSP)  returns 0x00000000 (0000ms, 0515ms total)
T151C 004:785 JLINK_ReadReg(CFBP)  returns 0x04000000 (0000ms, 0515ms total)
T151C 004:785 JLINK_ReadReg(FPSCR)  returns 0x03000000 (0014ms, 0529ms total)
T151C 004:799 JLINK_ReadReg(FPS0)  returns 0x00000000 (0000ms, 0529ms total)
T151C 004:799 JLINK_ReadReg(FPS1)  returns 0x00000000 (0000ms, 0529ms total)
T151C 004:799 JLINK_ReadReg(FPS2)  returns 0x00000000 (0000ms, 0529ms total)
T151C 004:799 JLINK_ReadReg(FPS3)  returns 0x00000000 (0000ms, 0529ms total)
T151C 004:799 JLINK_ReadReg(FPS4)  returns 0x00000000 (0000ms, 0529ms total)
T151C 004:799 JLINK_ReadReg(FPS5)  returns 0x00000000 (0000ms, 0529ms total)
T151C 004:799 JLINK_ReadReg(FPS6)  returns 0x00000000 (0000ms, 0529ms total)
T151C 004:799 JLINK_ReadReg(FPS7)  returns 0x00000000 (0000ms, 0529ms total)
T151C 004:799 JLINK_ReadReg(FPS8)  returns 0x00000000 (0000ms, 0529ms total)
T151C 004:799 JLINK_ReadReg(FPS9)  returns 0x00000000 (0000ms, 0529ms total)
T151C 004:799 JLINK_ReadReg(FPS10)  returns 0x00000000 (0001ms, 0530ms total)
T151C 004:800 JLINK_ReadReg(FPS11)  returns 0x00000000 (0000ms, 0530ms total)
T151C 004:800 JLINK_ReadReg(FPS12)  returns 0x00000000 (0000ms, 0530ms total)
T151C 004:800 JLINK_ReadReg(FPS13)  returns 0x00000000 (0000ms, 0530ms total)
T151C 004:800 JLINK_ReadReg(FPS14)  returns 0x00000000 (0000ms, 0530ms total)
T151C 004:800 JLINK_ReadReg(FPS15)  returns 0x00000000 (0000ms, 0530ms total)
T151C 004:800 JLINK_ReadReg(FPS16)  returns 0x00000000 (0000ms, 0530ms total)
T151C 004:800 JLINK_ReadReg(FPS17)  returns 0x00000000 (0000ms, 0530ms total)
T151C 004:800 JLINK_ReadReg(FPS18)  returns 0x00000000 (0000ms, 0530ms total)
T151C 004:800 JLINK_ReadReg(FPS19)  returns 0x00000000 (0000ms, 0530ms total)
T151C 004:800 JLINK_ReadReg(FPS20)  returns 0x00000000 (0000ms, 0530ms total)
T151C 004:800 JLINK_ReadReg(FPS21)  returns 0x00000000 (0000ms, 0530ms total)
T151C 004:800 JLINK_ReadReg(FPS22)  returns 0x00000000 (0000ms, 0530ms total)
T151C 004:800 JLINK_ReadReg(FPS23)  returns 0x00000000 (0000ms, 0530ms total)
T151C 004:800 JLINK_ReadReg(FPS24)  returns 0x00000000 (0000ms, 0530ms total)
T151C 004:800 JLINK_ReadReg(FPS25)  returns 0x00000000 (0000ms, 0530ms total)
T151C 004:800 JLINK_ReadReg(FPS26)  returns 0x00000000 (0000ms, 0530ms total)
T151C 004:800 JLINK_ReadReg(FPS27)  returns 0x00000000 (0000ms, 0530ms total)
T151C 004:800 JLINK_ReadReg(FPS28)  returns 0x00000000 (0000ms, 0530ms total)
T151C 004:800 JLINK_ReadReg(FPS29)  returns 0x00000000 (0000ms, 0530ms total)
T151C 004:800 JLINK_ReadReg(FPS30)  returns 0x00000000 (0001ms, 0531ms total)
T151C 004:801 JLINK_ReadReg(FPS31)  returns 0x00000000 (0000ms, 0531ms total)
T45A8 004:829 JLINK_ReadMem (0x200000B8, 0x0004 Bytes, ...) -- CPU_ReadMem(64 bytes @ 0x20000080) -- Updating C cache (64 bytes @ 0x20000080) -- Read from C cache (4 bytes @ 0x200000B8) - Data: 00 00 00 00  returns 0x00 (0003ms, 0534ms total)
T45A8 004:832 JLINK_ReadMem (0x20000045, 0x0001 Bytes, ...) -- CPU_ReadMem(64 bytes @ 0x20000040) -- Updating C cache (64 bytes @ 0x20000040) -- Read from C cache (1 bytes @ 0x20000045) - Data: 00  returns 0x00 (0003ms, 0537ms total)
T45A8 004:837 JLINK_ReadMem (0x20000000, 0x0001 Bytes, ...) -- CPU_ReadMem(64 bytes @ 0x20000000) -- Updating C cache (64 bytes @ 0x20000000) -- Read from C cache (1 bytes @ 0x20000000) - Data: 00  returns 0x00 (0003ms, 0540ms total)
T45A8 005:078 JLINK_ReadMem (0x0800035A, 0x0002 Bytes, ...) -- CPU_ReadMem(64 bytes @ 0x08000340) -- Updating C cache (64 bytes @ 0x08000340) -- Read from C cache (2 bytes @ 0x0800035A) - Data: 4F F4  returns 0x00 (0003ms, 0543ms total)
T45A8 005:081 JLINK_ReadMem (0x0800035C, 0x003C Bytes, ...) -- CPU_ReadMem(64 bytes @ 0x08000380) -- Updating C cache (64 bytes @ 0x08000380) -- Read from C cache (60 bytes @ 0x0800035C) - Data: 40 70 04 F0 2B FA B4 20 02 F0 B6 FE 02 F0 D1 FC ...  returns 0x00 (0003ms, 0546ms total)
T151C 007:000 JLINK_Go() -- CPU_ReadMem(4 bytes @ 0xE0001000) -- CPU_WriteMem(4 bytes @ 0xE0002008) (0005ms, 0551ms total)
T151C 007:105 JLINK_IsHalted()  returns FALSE (0001ms, 0552ms total)
T151C 007:207 JLINK_IsHalted()  returns FALSE (0001ms, 0552ms total)
T151C 007:309 JLINK_IsHalted()  returns FALSE (0001ms, 0552ms total)
T151C 007:410 JLINK_IsHalted()  returns FALSE (0001ms, 0552ms total)
T151C 007:512 JLINK_IsHalted()  returns FALSE (0001ms, 0552ms total)
T151C 007:614 JLINK_ReadMemU32(0xE0001004, 0x0001 Items, ...) -- CPU is running -- CPU_ReadMem(4 bytes @ 0xE0001004) - Data: ED A7 8C 06  returns 0x01 (0001ms, 0552ms total)
T45A8 007:617 JLINK_ReadMem (0x200000B8, 0x0004 Bytes, ...) -- CPU is running -- CPU_ReadMem(4 bytes @ 0x200000B8) - Data: 00 00 00 00  returns 0x00 (0002ms, 0554ms total)
T45A8 007:619 JLINK_ReadMem (0x20000045, 0x0001 Bytes, ...) -- CPU is running -- CPU_ReadMem(1 bytes @ 0x20000045) - Data: 00  returns 0x00 (0001ms, 0555ms total)
T45A8 007:620 JLINK_ReadMem (0x20000000, 0x0001 Bytes, ...) -- CPU is running -- CPU_ReadMem(1 bytes @ 0x20000000) - Data: 00  returns 0x00 (0002ms, 0557ms total)
T151C 007:622 JLINK_IsHalted()  returns FALSE (0001ms, 0558ms total)
T151C 007:723 JLINK_IsHalted()  returns FALSE (0001ms, 0558ms total)
T151C 007:825 JLINK_IsHalted()  returns FALSE (0001ms, 0558ms total)
T151C 007:927 JLINK_IsHalted()  returns FALSE (0001ms, 0558ms total)
T151C 008:028 JLINK_IsHalted()  returns FALSE (0001ms, 0558ms total)
T151C 008:130 JLINK_ReadMemU32(0xE0001004, 0x0001 Items, ...) -- CPU is running - Data: ED A7 8C 06  returns 0x01 (0000ms, 0557ms total)
T45A8 008:132 JLINK_ReadMem (0x200000B8, 0x0004 Bytes, ...) -- CPU is running -- CPU_ReadMem(4 bytes @ 0x200000B8) - Data: 00 00 00 00  returns 0x00 (0001ms, 0558ms total)
T45A8 008:133 JLINK_ReadMem (0x20000045, 0x0001 Bytes, ...) -- CPU is running -- CPU_ReadMem(1 bytes @ 0x20000045) - Data: 00  returns 0x00 (0002ms, 0560ms total)
T45A8 008:135 JLINK_ReadMem (0x20000000, 0x0001 Bytes, ...) -- CPU is running -- CPU_ReadMem(1 bytes @ 0x20000000) - Data: 00  returns 0x00 (0001ms, 0561ms total)
T151C 008:136 JLINK_IsHalted()  returns FALSE (0001ms, 0562ms total)
T151C 008:238 JLINK_IsHalted()  returns FALSE (0001ms, 0562ms total)
T151C 008:340 JLINK_IsHalted()  returns FALSE (0001ms, 0562ms total)
T151C 008:442 JLINK_IsHalted()  returns FALSE (0001ms, 0562ms total)
T151C 008:544 JLINK_IsHalted()  returns FALSE (0001ms, 0562ms total)
T151C 008:645 JLINK_ReadMemU32(0xE0001004, 0x0001 Items, ...) -- CPU is running - Data: ED A7 8C 06  returns 0x01 (0000ms, 0561ms total)
T45A8 008:648 JLINK_ReadMem (0x200000B8, 0x0004 Bytes, ...) -- CPU is running -- CPU_ReadMem(4 bytes @ 0x200000B8) - Data: 00 00 00 00  returns 0x00 (0001ms, 0562ms total)
T45A8 008:649 JLINK_ReadMem (0x20000045, 0x0001 Bytes, ...) -- CPU is running -- CPU_ReadMem(1 bytes @ 0x20000045) - Data: 00  returns 0x00 (0001ms, 0563ms total)
T45A8 008:651 JLINK_ReadMem (0x20000000, 0x0001 Bytes, ...) -- CPU is running -- CPU_ReadMem(1 bytes @ 0x20000000) - Data: 00  returns 0x00 (0001ms, 0564ms total)
T151C 008:652 JLINK_IsHalted()  returns FALSE (0001ms, 0565ms total)
T151C 008:754 JLINK_IsHalted()  returns FALSE (0001ms, 0565ms total)
T151C 008:856 JLINK_IsHalted()  returns FALSE (0001ms, 0565ms total)
T151C 008:957 JLINK_IsHalted()  returns FALSE (0001ms, 0565ms total)
T151C 009:059 JLINK_IsHalted()  returns FALSE (0001ms, 0565ms total)
T151C 009:161 JLINK_ReadMemU32(0xE0001004, 0x0001 Items, ...) -- CPU is running - Data: ED A7 8C 06  returns 0x01 (0000ms, 0564ms total)
T45A8 009:166 JLINK_ReadMem (0x200000B8, 0x0004 Bytes, ...) -- CPU is running -- CPU_ReadMem(4 bytes @ 0x200000B8) - Data: 00 00 00 00  returns 0x00 (0001ms, 0565ms total)
T45A8 009:167 JLINK_ReadMem (0x20000045, 0x0001 Bytes, ...) -- CPU is running -- CPU_ReadMem(1 bytes @ 0x20000045) - Data: 00  returns 0x00 (0001ms, 0566ms total)
T45A8 009:169 JLINK_ReadMem (0x20000000, 0x0001 Bytes, ...) -- CPU is running -- CPU_ReadMem(1 bytes @ 0x20000000) - Data: 00  returns 0x00 (0001ms, 0567ms total)
T151C 009:170 JLINK_IsHalted()  returns FALSE (0001ms, 0568ms total)
T151C 009:272 JLINK_IsHalted()  returns FALSE (0001ms, 0568ms total)
T151C 009:373 JLINK_IsHalted()  returns FALSE (0001ms, 0568ms total)
T151C 009:475 JLINK_IsHalted()  returns FALSE (0001ms, 0568ms total)
T151C 009:577 JLINK_IsHalted()  returns FALSE (0001ms, 0568ms total)
T151C 009:678 JLINK_ReadMemU32(0xE0001004, 0x0001 Items, ...) -- CPU is running - Data: ED A7 8C 06  returns 0x01 (0000ms, 0567ms total)
